T2F08 000:007.098   SEGGER J-Link V6.60e Log File
T2F08 000:007.268   DLL Compiled: Jan 17 2020 17:25:00
T2F08 000:007.278   Logging started @ 2026-04-22 04:07
T2F08 000:007.290 JLINK_SetWarnOutHandler(...)
T2F08 000:007.300 - 0.013ms
T2F08 000:007.312 JLINK_OpenEx(...)
T2F08 000:009.377   Firmware: J-Link OB-STM32F072-128KB-CortexM compiled Oct 30 2023 12:11:14
T2F08 000:029.011   Hardware: V1.00
T2F08 000:029.054   S/N: 4294967295
T2F08 000:029.066   OEM: SEGGER
T2F08 000:029.077   Feature(s): GDB, FlashDL, FlashBP, JFlash
T2F08 000:031.219   TELNET listener socket opened on port 19021
T2F08 000:031.400   WEBSRV Starting webserver
T2F08 000:031.612   WEBSRV Webserver running on local port 19080
T2F08 000:031.631 - 24.323ms returns "O.K."
T2F08 000:031.671 JLINK_GetEmuCaps()
T2F08 000:031.680 - 0.013ms returns 0xB8EA5A33
T2F08 000:031.698 JLINK_TIF_GetAvailable(...)
T2F08 000:032.148 - 0.465ms
T2F08 000:032.187 JLINK_SetErrorOutHandler(...)
T2F08 000:032.200 - 0.018ms
T2F08 000:032.237 JLINK_ExecCommand("ProjectFile = "C:\Users\IAA\Downloads\Code\DRONE\MDK-ARM\JLinkSettings.ini"", ...). 
T2F08 000:034.190   Ref file found at: C:\Users\IAA\AppData\Local\Keil\ARM\Segger\JLinkDevices.ref
T2F08 000:034.322   XML referenced by ref file: C:\Program Files (x86)\SEGGER\JLink\JLinkDevices.xml
T2F08 000:035.306   C:\Program Files (x86)\SEGGER\JLink\JLinkDevices.xml evaluated successfully.
T2F08 000:093.282 - 61.069ms returns 0x00
T2F08 000:097.087 JLINK_ExecCommand("Device = STM32F401CCUx", ...). 
T2F08 000:102.047   Device "STM32F401CC" selected.
T2F08 000:102.520 - 5.418ms returns 0x00
T2F08 000:102.547 JLINK_ExecCommand("DisableConnectionTimeout", ...). 
T2F08 000:102.568 - 0.011ms returns 0x01
T2F08 000:102.584 JLINK_GetHardwareVersion()
T2F08 000:102.596 - 0.017ms returns 0x2710
T2F08 000:102.610 JLINK_GetDLLVersion()  returns 66005
T2F08 000:102.634 JLINK_GetFirmwareString(...)
T2F08 000:102.645 - 0.018ms
T2F08 000:114.463 JLINK_GetDLLVersion()  returns 66005
T2F08 000:114.529 JLINK_GetCompileDateTime()
T2F08 000:114.545 - 0.021ms
T2F08 000:118.292 JLINK_GetFirmwareString(...)
T2F08 000:118.324 - 0.038ms
T2F08 000:122.484 JLINK_GetHardwareVersion()
T2F08 000:122.519 - 0.041ms returns 0x2710
T2F08 000:133.827 JLINK_TIF_Select(JLINKARM_TIF_SWD)
T2F08 000:135.427 - 1.615ms returns 0x00
T2F08 000:135.466 JLINK_SetSpeed(2000)
T2F08 000:135.811 - 0.365ms
T2F08 000:135.847 JLINK_GetId()
T2F08 000:141.421   Found SW-DP with ID 0x2BA01477
T2F08 000:171.142   Found SW-DP with ID 0x2BA01477
T2F08 000:181.315   Scanning AP map to find all available APs
T2F08 000:190.719   AP[1]: Stopped AP scan as end of AP map has been reached
T2F08 000:194.393   AP[0]: AHB-AP (IDR: 0x24770011)
T2F08 000:198.366   Iterating through AP map to find AHB-AP to use
T2F08 000:212.759   AP[0]: Core found
T2F08 000:216.306   AP[0]: AHB-AP ROM base: 0xE00FF000
T2F08 000:227.355   CPUID register: 0x410FC241. Implementer code: 0x41 (ARM)
T2F08 000:230.494   Found Cortex-M4 r0p1, Little endian.
T2F08 000:332.634    -- Max. mem block: 0x00001A10
T2F08 000:332.693    -- CPU_ReadMem(4 bytes @ 0xE000EDF0)
T2F08 000:333.810    -- CPU_WriteMem(4 bytes @ 0xE000EDF0)
T2F08 000:334.545    -- CPU_ReadMem(4 bytes @ 0xE0002000)
T2F08 000:339.077   FPUnit: 6 code (BP) slots and 2 literal slots
T2F08 000:339.112    -- CPU_ReadMem(4 bytes @ 0xE000EDFC)
T2F08 000:339.785    -- CPU_WriteMem(4 bytes @ 0xE000EDFC)
T2F08 000:340.548    -- CPU_ReadMem(4 bytes @ 0xE0001000)
T2F08 000:341.353    -- CPU_WriteMem(4 bytes @ 0xE0001000)
T2F08 000:342.092    -- CPU_ReadMem(4 bytes @ 0xE000ED88)
T2F08 000:342.785    -- CPU_WriteMem(4 bytes @ 0xE000ED88)
T2F08 000:343.569    -- CPU_ReadMem(4 bytes @ 0xE000ED88)
T2F08 000:344.297    -- CPU_WriteMem(4 bytes @ 0xE000ED88)
T2F08 000:349.169   CoreSight components:
T2F08 000:352.650   ROMTbl[0] @ E00FF000
T2F08 000:352.680    -- CPU_ReadMem(16 bytes @ 0xE00FF000)
T2F08 000:353.526    -- CPU_ReadMem(16 bytes @ 0xE000EFF0)
T2F08 000:354.400    -- CPU_ReadMem(16 bytes @ 0xE000EFE0)
T2F08 000:358.492   ROMTbl[0][0]: E000E000, CID: B105E00D, PID: 000BB00C SCS-M7
T2F08 000:358.524    -- CPU_ReadMem(16 bytes @ 0xE0001FF0)
T2F08 000:359.420    -- CPU_ReadMem(16 bytes @ 0xE0001FE0)
T2F08 000:364.234   ROMTbl[0][1]: E0001000, CID: B105E00D, PID: 003BB002 DWT
T2F08 000:364.264    -- CPU_ReadMem(16 bytes @ 0xE0002FF0)
T2F08 000:365.038    -- CPU_ReadMem(16 bytes @ 0xE0002FE0)
T2F08 000:370.237   ROMTbl[0][2]: E0002000, CID: B105E00D, PID: 002BB003 FPB
T2F08 000:370.286    -- CPU_ReadMem(16 bytes @ 0xE0000FF0)
T2F08 000:371.134    -- CPU_ReadMem(16 bytes @ 0xE0000FE0)
T2F08 000:376.143   ROMTbl[0][3]: E0000000, CID: B105E00D, PID: 003BB001 ITM
T2F08 000:376.178    -- CPU_ReadMem(16 bytes @ 0xE00FF010)
T2F08 000:377.029    -- CPU_ReadMem(16 bytes @ 0xE0040FF0)
T2F08 000:377.901    -- CPU_ReadMem(16 bytes @ 0xE0040FE0)
T2F08 000:383.952   ROMTbl[0][4]: E0040000, CID: B105900D, PID: 000BB9A1 TPIU
T2F08 000:384.000    -- CPU_ReadMem(16 bytes @ 0xE0041FF0)
T2F08 000:384.942    -- CPU_ReadMem(16 bytes @ 0xE0041FE0)
T2F08 000:389.457   ROMTbl[0][5]: E0041000, CID: B105900D, PID: 000BB925 ETM
T2F08 000:390.473 - 254.642ms   returns 0x2BA01477
T2F08 000:390.642 JLINK_GetDLLVersion()  returns 66005
T2F08 000:390.666 JLINK_CORE_GetFound()
T2F08 000:390.681 - 0.022ms returns 0xE0000FF
T2F08 000:390.699 JLINK_GetDebugInfo(0x100 = JLINKARM_ROM_TABLE_ADDR_INDEX)
T2F08 000:390.714   Value=0xE00FF000
T2F08 000:390.734 - 0.041ms returns 0x00
T2F08 000:394.262 JLINK_GetDebugInfo(0x100 = JLINKARM_ROM_TABLE_ADDR_INDEX)
T2F08 000:394.285   Value=0xE00FF000
T2F08 000:394.296 - 0.037ms returns 0x00
T2F08 000:394.307 JLINK_GetDebugInfo(0x101 = JLINKARM_DEBUG_INFO_ETM_ADDR_INDEX)
T2F08 000:394.315   Value=0xE0041000
T2F08 000:394.326 - 0.023ms returns 0x00
T2F08 000:394.344   JLINK_ReadMemEx(0xE0041FD0, 0x0020 Bytes, ..., Flags = 0x02000004)
T2F08 000:394.374    -- CPU_ReadMem(32 bytes @ 0xE0041FD0)
T2F08 000:395.303   Data:  04 00 00 00 00 00 00 00 00 00 00 00 00 00 00 00 ...
T2F08 000:395.324 - 0.985ms returns 0x20
T2F08 000:395.337 JLINK_GetDebugInfo(0x102 = JLINKARM_DEBUG_INFO_MTB_ADDR_INDEX)
T2F08 000:395.346   Value=0x00000000
T2F08 000:395.357 - 0.023ms returns 0x00
T2F08 000:395.366 JLINK_GetDebugInfo(0x103 = JLINKARM_DEBUG_INFO_TPIU_ADDR_INDEX)
T2F08 000:395.374   Value=0xE0040000
T2F08 000:395.385 - 0.022ms returns 0x00
T2F08 000:395.394 JLINK_GetDebugInfo(0x104 = JLINKARM_DEBUG_INFO_ITM_ADDR_INDEX)
T2F08 000:395.402   Value=0xE0000000
T2F08 000:395.413 - 0.022ms returns 0x00
T2F08 000:395.422 JLINK_GetDebugInfo(0x105 = JLINKARM_DEBUG_INFO_DWT_ADDR_INDEX)
T2F08 000:395.430   Value=0xE0001000
T2F08 000:395.441 - 0.022ms returns 0x00
T2F08 000:395.450 JLINK_GetDebugInfo(0x106 = JLINKARM_DEBUG_INFO_FPB_ADDR_INDEX)
T2F08 000:395.457   Value=0xE0002000
T2F08 000:395.468 - 0.022ms returns 0x00
T2F08 000:395.478 JLINK_GetDebugInfo(0x107 = JLINKARM_DEBUG_INFO_NVIC_ADDR_INDEX)
T2F08 000:395.485   Value=0xE000E000
T2F08 000:395.496 - 0.022ms returns 0x00
T2F08 000:395.505 JLINK_GetDebugInfo(0x10C = JLINKARM_DEBUG_INFO_DBG_ADDR_INDEX)
T2F08 000:395.514   Value=0xE000EDF0
T2F08 000:395.524 - 0.022ms returns 0x00
T2F08 000:395.534 JLINK_GetDebugInfo(0x01 = Unknown)
T2F08 000:395.545   Value=0x00000001
T2F08 000:395.555 - 0.024ms returns 0x00
T2F08 000:395.568   JLINK_ReadMemU32(0xE000ED00, 0x0001 Items, ...)
T2F08 000:395.584    -- CPU_ReadMem(4 bytes @ 0xE000ED00)
T2F08 000:396.345   Data:  41 C2 0F 41
T2F08 000:396.374    - CPUID
T2F08 000:396.386 - 0.823ms returns 1
T2F08 000:396.399 JLINK_GetDebugInfo(0x10F = JLINKARM_DEBUG_INFO_HAS_CORTEX_M_SECURITY_EXT_INDEX)
T2F08 000:396.408   Value=0x00000000
T2F08 000:396.419 - 0.023ms returns 0x00
T2F08 000:396.432 JLINK_SetResetType(JLINKARM_CM3_RESET_TYPE_NORMAL)
T2F08 000:396.440 - 0.012ms returns JLINKARM_CM3_RESET_TYPE_NORMAL
T2F08 000:396.450 JLINK_Reset()
T2F08 000:396.475   CPU is running
T2F08 000:396.488    -- CPU_WriteMem(4 bytes @ 0xE000EDF0)
T2F08 000:397.188   CPU is running
T2F08 000:397.224    -- CPU_WriteMem(4 bytes @ 0xE000EDFC)
T2F08 000:401.354   Reset: Halt core after reset via DEMCR.VC_CORERESET.
T2F08 000:406.232   Reset: Reset device via AIRCR.SYSRESETREQ.
T2F08 000:406.262   CPU is running
T2F08 000:406.277    -- CPU_WriteMem(4 bytes @ 0xE000ED0C)
T2F08 000:460.976    -- CPU_ReadMem(4 bytes @ 0xE000EDF0)
T2F08 000:461.664    -- CPU_ReadMem(4 bytes @ 0xE000EDF0)
T2F08 000:462.417   CPU is running
T2F08 000:462.447    -- CPU_WriteMem(4 bytes @ 0xE000EDF0)
T2F08 000:463.197   CPU is running
T2F08 000:463.222    -- CPU_WriteMem(4 bytes @ 0xE000EDFC)
T2F08 000:469.441    -- CPU_ReadMem(4 bytes @ 0xE000EDF0)
T2F08 000:475.209    -- CPU_WriteMem(4 bytes @ 0xE0002000)
T2F08 000:476.026    -- CPU_ReadMem(4 bytes @ 0xE000EDFC)
T2F08 000:476.771    -- CPU_ReadMem(4 bytes @ 0xE0001000)
T2F08 000:477.437 - 81.014ms
T2F08 000:477.579 JLINK_Halt()
T2F08 000:477.603 - 0.032ms returns 0x00
T2F08 000:477.626   JLINK_ReadMemU32(0xE000EDF0, 0x0001 Items, ...)
T2F08 000:477.650    -- CPU_ReadMem(4 bytes @ 0xE000EDF0)
T2F08 000:478.290   Data:  03 00 03 00
T2F08 000:478.313    - DHCSR
T2F08 000:478.325 - 0.704ms returns 1
T2F08 000:478.341   JLINK_WriteU32(0xE000EDF0, 0xA05F0003)
T2F08 000:478.353    - DHCSR
T2F08 000:478.384    -- CPU_WriteMem(4 bytes @ 0xE000EDF0)
T2F08 000:479.077 - 0.759ms returns 0
T2F08 000:479.114   JLINK_WriteU32(0xE000EDFC, 0x01000000)
T2F08 000:479.133    - DEMCR
T2F08 000:479.161    -- CPU_WriteMem(4 bytes @ 0xE000EDFC)
T2F08 000:479.947 - 0.843ms returns 0
T2F08 000:493.753 JLINK_GetHWStatus(...)
T2F08 000:494.344 - 0.608ms returns 0x00
T2F08 000:504.193 JLINK_GetNumBPUnits(Type = 0xFFFFFF00)
T2F08 000:504.219 - 0.031ms returns 0x06
T2F08 000:504.231 JLINK_GetNumBPUnits(Type = 0xF0)
T2F08 000:504.239 - 0.011ms returns 0x2000
T2F08 000:504.249 JLINK_GetNumWPUnits()
T2F08 000:504.256 - 0.011ms returns 0x04
T2F08 000:514.478 JLINK_GetSpeed()
T2F08 000:514.505 - 0.031ms returns 0x7D0
T2F08 000:521.920   JLINK_ReadMemU32(0xE000E004, 0x0001 Items, ...)
T2F08 000:521.964    -- CPU_ReadMem(4 bytes @ 0xE000E004)
T2F08 000:522.674   Data:  02 00 00 00
T2F08 000:522.701 - 0.786ms returns 1
T2F08 000:522.715   JLINK_ReadMemU32(0xE000E004, 0x0001 Items, ...)
T2F08 000:522.744    -- CPU_ReadMem(4 bytes @ 0xE000E004)
T2F08 000:523.459   Data:  02 00 00 00
T2F08 000:523.487 - 0.779ms returns 1
T2F08 000:523.507 JLINK_WriteMemEx(0xE0001000, 0x001C Bytes, ..., Flags = 0x02000004)
T2F08 000:523.521   Data:  01 00 00 00 00 00 00 00 00 00 00 00 00 00 00 00 ...
T2F08 000:523.914    -- CPU_WriteMem(28 bytes @ 0xE0001000)
T2F08 000:524.913 - 1.423ms returns 0x1C
T2F08 000:524.944 JLINK_Halt()
T2F08 000:524.953 - 0.013ms returns 0x00
T2F08 000:524.963 JLINK_IsHalted()
T2F08 000:524.973 - 0.013ms returns TRUE
T2F08 000:528.951 JLINK_WriteMem(0x20000000, 0x0184 Bytes, ...)
T2F08 000:528.966   Data:  00 BE 0A E0 0D 78 2D 06 68 40 08 24 40 00 00 D3 ...
T2F08 000:529.228    -- CPU_WriteMem(388 bytes @ 0x20000000)
T2F08 000:533.463 - 4.532ms returns 0x184
T2F08 000:533.568 JLINK_WriteReg(R0, 0x08000000)
T2F08 000:533.598 - 0.036ms returns 0x00
T2F08 000:533.612 JLINK_WriteReg(R1, 0x017D7840)
T2F08 000:533.624 - 0.016ms returns 0x00
T2F08 000:533.636 JLINK_WriteReg(R2, 0x00000001)
T2F08 000:533.647 - 0.015ms returns 0x00
T2F08 000:533.659 JLINK_WriteReg(R3, 0x00000000)
T2F08 000:533.669 - 0.015ms returns 0x00
T2F08 000:533.681 JLINK_WriteReg(R4, 0x00000000)
T2F08 000:533.691 - 0.015ms returns 0x00
T2F08 000:533.703 JLINK_WriteReg(R5, 0x00000000)
T2F08 000:533.714 - 0.015ms returns 0x00
T2F08 000:533.725 JLINK_WriteReg(R6, 0x00000000)
T2F08 000:533.736 - 0.015ms returns 0x00
T2F08 000:533.748 JLINK_WriteReg(R7, 0x00000000)
T2F08 000:533.758 - 0.015ms returns 0x00
T2F08 000:533.770 JLINK_WriteReg(R8, 0x00000000)
T2F08 000:533.780 - 0.015ms returns 0x00
T2F08 000:533.792 JLINK_WriteReg(R9, 0x20000180)
T2F08 000:533.803 - 0.015ms returns 0x00
T2F08 000:533.814 JLINK_WriteReg(R10, 0x00000000)
T2F08 000:533.823 - 0.012ms returns 0x00
T2F08 000:533.833 JLINK_WriteReg(R11, 0x00000000)
T2F08 000:533.847 - 0.020ms returns 0x00
T2F08 000:533.859 JLINK_WriteReg(R12, 0x00000000)
T2F08 000:533.867 - 0.012ms returns 0x00
T2F08 000:533.877 JLINK_WriteReg(R13 (SP), 0x20001000)
T2F08 000:533.887 - 0.013ms returns 0x00
T2F08 000:533.897 JLINK_WriteReg(R14, 0x20000001)
T2F08 000:533.905 - 0.012ms returns 0x00
T2F08 000:533.915 JLINK_WriteReg(R15 (PC), 0x20000054)
T2F08 000:533.924 - 0.012ms returns 0x00
T2F08 000:533.934 JLINK_WriteReg(XPSR, 0x01000000)
T2F08 000:533.942 - 0.012ms returns 0x00
T2F08 000:533.952 JLINK_WriteReg(MSP, 0x20001000)
T2F08 000:533.960 - 0.012ms returns 0x00
T2F08 000:533.970 JLINK_WriteReg(PSP, 0x20001000)
T2F08 000:533.978 - 0.012ms returns 0x00
T2F08 000:533.989 JLINK_WriteReg(CFBP, 0x00000000)
T2F08 000:533.997 - 0.012ms returns 0x00
T2F08 000:534.008   JLINK_SetBPEx(Addr = 0x20000000, Type = 0xFFFFFFF2)
T2F08 000:534.025    -- CPU_ReadMem(2 bytes @ 0x20000000)
T2F08 000:534.786 - 0.795ms returns 0x00000001
T2F08 000:534.814 JLINK_Go()
T2F08 000:534.828    -- CPU_WriteMem(2 bytes @ 0x20000000)
T2F08 000:535.628    -- CPU_ReadMem(4 bytes @ 0xE0001000)
T2F08 000:536.403    -- CPU_WriteMem(4 bytes @ 0xE0002008)
T2F08 000:536.429    -- CPU_WriteMem(4 bytes @ 0xE000200C)
T2F08 000:536.442    -- CPU_WriteMem(4 bytes @ 0xE0002010)
T2F08 000:536.454    -- CPU_WriteMem(4 bytes @ 0xE0002014)
T2F08 000:536.466    -- CPU_WriteMem(4 bytes @ 0xE0002018)
T2F08 000:536.478    -- CPU_WriteMem(4 bytes @ 0xE000201C)
T2F08 000:539.206    -- CPU_WriteMem(4 bytes @ 0xE0001004)
T2F08 000:544.810 - 10.013ms
T2F08 000:544.838 JLINK_IsHalted()
T2F08 000:549.702    -- CPU_ReadMem(2 bytes @ 0x20000000)
T2F08 000:550.621 - 5.797ms returns TRUE
T2F08 000:550.646 JLINK_ReadReg(R15 (PC))
T2F08 000:550.658 - 0.016ms returns 0x20000000
T2F08 000:550.669 JLINK_ClrBPEx(BPHandle = 0x00000001)
T2F08 000:550.678 - 0.012ms returns 0x00
T2F08 000:550.688 JLINK_ReadReg(R0)
T2F08 000:550.696 - 0.012ms returns 0x00000000
T2F08 000:551.166 JLINK_WriteReg(R0, 0x08000000)
T2F08 000:551.189 - 0.027ms returns 0x00
T2F08 000:551.199 JLINK_WriteReg(R1, 0x00004000)
T2F08 000:551.208 - 0.012ms returns 0x00
T2F08 000:551.217 JLINK_WriteReg(R2, 0x000000FF)
T2F08 000:551.225 - 0.012ms returns 0x00
T2F08 000:551.235 JLINK_WriteReg(R3, 0x00000000)
T2F08 000:551.243 - 0.012ms returns 0x00
T2F08 000:551.253 JLINK_WriteReg(R4, 0x00000000)
T2F08 000:551.261 - 0.012ms returns 0x00
T2F08 000:551.270 JLINK_WriteReg(R5, 0x00000000)
T2F08 000:551.279 - 0.012ms returns 0x00
T2F08 000:551.288 JLINK_WriteReg(R6, 0x00000000)
T2F08 000:551.296 - 0.012ms returns 0x00
T2F08 000:551.306 JLINK_WriteReg(R7, 0x00000000)
T2F08 000:551.314 - 0.012ms returns 0x00
T2F08 000:551.323 JLINK_WriteReg(R8, 0x00000000)
T2F08 000:551.331 - 0.012ms returns 0x00
T2F08 000:551.341 JLINK_WriteReg(R9, 0x20000180)
T2F08 000:551.349 - 0.012ms returns 0x00
T2F08 000:551.358 JLINK_WriteReg(R10, 0x00000000)
T2F08 000:551.367 - 0.012ms returns 0x00
T2F08 000:551.376 JLINK_WriteReg(R11, 0x00000000)
T2F08 000:551.384 - 0.012ms returns 0x00
T2F08 000:551.394 JLINK_WriteReg(R12, 0x00000000)
T2F08 000:551.402 - 0.012ms returns 0x00
T2F08 000:551.411 JLINK_WriteReg(R13 (SP), 0x20001000)
T2F08 000:551.420 - 0.012ms returns 0x00
T2F08 000:551.429 JLINK_WriteReg(R14, 0x20000001)
T2F08 000:551.438 - 0.012ms returns 0x00
T2F08 000:551.447 JLINK_WriteReg(R15 (PC), 0x20000020)
T2F08 000:551.455 - 0.012ms returns 0x00
T2F08 000:551.465 JLINK_WriteReg(XPSR, 0x01000000)
T2F08 000:551.473 - 0.012ms returns 0x00
T2F08 000:551.483 JLINK_WriteReg(MSP, 0x20001000)
T2F08 000:551.491 - 0.012ms returns 0x00
T2F08 000:551.500 JLINK_WriteReg(PSP, 0x20001000)
T2F08 000:551.508 - 0.012ms returns 0x00
T2F08 000:551.518 JLINK_WriteReg(CFBP, 0x00000000)
T2F08 000:551.526 - 0.011ms returns 0x00
T2F08 000:551.536   JLINK_SetBPEx(Addr = 0x20000000, Type = 0xFFFFFFF2)
T2F08 000:551.548 - 0.017ms returns 0x00000002
T2F08 000:551.558 JLINK_Go()
T2F08 000:551.574    -- CPU_ReadMem(4 bytes @ 0xE0001000)
T2F08 000:556.985 - 5.511ms
T2F08 000:557.084 JLINK_IsHalted()
T2F08 000:557.785 - 0.711ms returns FALSE
T2F08 000:576.738 JLINK_IsHalted()
T2F08 000:581.827    -- CPU_ReadMem(2 bytes @ 0x20000000)
T2F08 000:582.613 - 5.889ms returns TRUE
T2F08 000:582.640 JLINK_ReadReg(R15 (PC))
T2F08 000:582.655 - 0.021ms returns 0x20000000
T2F08 000:582.668 JLINK_ClrBPEx(BPHandle = 0x00000002)
T2F08 000:582.680 - 0.016ms returns 0x00
T2F08 000:582.692 JLINK_ReadReg(R0)
T2F08 000:582.703 - 0.015ms returns 0x00000000
T2F08 000:583.906 JLINK_WriteReg(R0, 0x08004000)
T2F08 000:583.948 - 0.052ms returns 0x00
T2F08 000:583.971 JLINK_WriteReg(R1, 0x00004000)
T2F08 000:583.990 - 0.027ms returns 0x00
T2F08 000:584.009 JLINK_WriteReg(R2, 0x000000FF)
T2F08 000:584.029 - 0.029ms returns 0x00
T2F08 000:584.049 JLINK_WriteReg(R3, 0x00000000)
T2F08 000:584.069 - 0.028ms returns 0x00
T2F08 000:584.085 JLINK_WriteReg(R4, 0x00000000)
T2F08 000:584.096 - 0.015ms returns 0x00
T2F08 000:584.108 JLINK_WriteReg(R5, 0x00000000)
T2F08 000:584.127 - 0.028ms returns 0x00
T2F08 000:584.148 JLINK_WriteReg(R6, 0x00000000)
T2F08 000:584.163 - 0.021ms returns 0x00
T2F08 000:584.219 JLINK_WriteReg(R7, 0x00000000)
T2F08 000:584.243 - 0.032ms returns 0x00
T2F08 000:584.260 JLINK_WriteReg(R8, 0x00000000)
T2F08 000:584.273 - 0.020ms returns 0x00
T2F08 000:584.290 JLINK_WriteReg(R9, 0x20000180)
T2F08 000:584.321 - 0.040ms returns 0x00
T2F08 000:584.353 JLINK_WriteReg(R10, 0x00000000)
T2F08 000:584.370 - 0.024ms returns 0x00
T2F08 000:584.393 JLINK_WriteReg(R11, 0x00000000)
T2F08 000:584.403 - 0.013ms returns 0x00
T2F08 000:584.413 JLINK_WriteReg(R12, 0x00000000)
T2F08 000:584.421 - 0.012ms returns 0x00
T2F08 000:584.432 JLINK_WriteReg(R13 (SP), 0x20001000)
T2F08 000:584.447 - 0.033ms returns 0x00
T2F08 000:584.486 JLINK_WriteReg(R14, 0x20000001)
T2F08 000:584.496 - 0.015ms returns 0x00
T2F08 000:584.510 JLINK_WriteReg(R15 (PC), 0x20000020)
T2F08 000:584.519 - 0.013ms returns 0x00
T2F08 000:584.533 JLINK_WriteReg(XPSR, 0x01000000)
T2F08 000:584.541 - 0.012ms returns 0x00
T2F08 000:584.554 JLINK_WriteReg(MSP, 0x20001000)
T2F08 000:584.563 - 0.012ms returns 0x00
T2F08 000:584.576 JLINK_WriteReg(PSP, 0x20001000)
T2F08 000:584.584 - 0.012ms returns 0x00
T2F08 000:584.594 JLINK_WriteReg(CFBP, 0x00000000)
T2F08 000:584.602 - 0.012ms returns 0x00
T2F08 000:584.616   JLINK_SetBPEx(Addr = 0x20000000, Type = 0xFFFFFFF2)
T2F08 000:584.630 - 0.018ms returns 0x00000003
T2F08 000:584.643 JLINK_Go()
T2F08 000:584.661    -- CPU_ReadMem(4 bytes @ 0xE0001000)
T2F08 000:590.284 - 5.657ms
T2F08 000:590.322 JLINK_IsHalted()
T2F08 000:591.023 - 0.715ms returns FALSE
T2F08 000:592.768 JLINK_IsHalted()
T2F08 000:593.403 - 0.646ms returns FALSE
T2F08 000:595.111 JLINK_IsHalted()
T2F08 000:595.789 - 0.692ms returns FALSE
T2F08 000:597.712 JLINK_IsHalted()
T2F08 000:598.405 - 0.705ms returns FALSE
T2F08 000:603.068 JLINK_IsHalted()
T2F08 000:603.793 - 0.736ms returns FALSE
T2F08 000:605.326 JLINK_IsHalted()
T2F08 000:610.422    -- CPU_ReadMem(2 bytes @ 0x20000000)
T2F08 000:611.160 - 5.846ms returns TRUE
T2F08 000:611.185 JLINK_ReadReg(R15 (PC))
T2F08 000:611.200 - 0.020ms returns 0x20000000
T2F08 000:611.213 JLINK_ClrBPEx(BPHandle = 0x00000003)
T2F08 000:611.225 - 0.017ms returns 0x00
T2F08 000:611.237 JLINK_ReadReg(R0)
T2F08 000:611.248 - 0.015ms returns 0x00000000
T2F08 000:612.099 JLINK_WriteReg(R0, 0x08008000)
T2F08 000:612.123 - 0.028ms returns 0x00
T2F08 000:612.133 JLINK_WriteReg(R1, 0x00004000)
T2F08 000:612.142 - 0.012ms returns 0x00
T2F08 000:612.151 JLINK_WriteReg(R2, 0x000000FF)
T2F08 000:612.159 - 0.011ms returns 0x00
T2F08 000:612.169 JLINK_WriteReg(R3, 0x00000000)
T2F08 000:612.177 - 0.011ms returns 0x00
T2F08 000:612.186 JLINK_WriteReg(R4, 0x00000000)
T2F08 000:612.194 - 0.011ms returns 0x00
T2F08 000:612.203 JLINK_WriteReg(R5, 0x00000000)
T2F08 000:612.212 - 0.012ms returns 0x00
T2F08 000:612.221 JLINK_WriteReg(R6, 0x00000000)
T2F08 000:612.229 - 0.011ms returns 0x00
T2F08 000:612.239 JLINK_WriteReg(R7, 0x00000000)
T2F08 000:612.254 - 0.021ms returns 0x00
T2F08 000:612.266 JLINK_WriteReg(R8, 0x00000000)
T2F08 000:612.274 - 0.012ms returns 0x00
T2F08 000:612.284 JLINK_WriteReg(R9, 0x20000180)
T2F08 000:612.292 - 0.011ms returns 0x00
T2F08 000:612.301 JLINK_WriteReg(R10, 0x00000000)
T2F08 000:612.309 - 0.012ms returns 0x00
T2F08 000:612.319 JLINK_WriteReg(R11, 0x00000000)
T2F08 000:612.327 - 0.012ms returns 0x00
T2F08 000:612.337 JLINK_WriteReg(R12, 0x00000000)
T2F08 000:612.345 - 0.012ms returns 0x00
T2F08 000:612.354 JLINK_WriteReg(R13 (SP), 0x20001000)
T2F08 000:612.363 - 0.012ms returns 0x00
T2F08 000:612.372 JLINK_WriteReg(R14, 0x20000001)
T2F08 000:612.380 - 0.011ms returns 0x00
T2F08 000:612.390 JLINK_WriteReg(R15 (PC), 0x20000020)
T2F08 000:612.398 - 0.012ms returns 0x00
T2F08 000:612.407 JLINK_WriteReg(XPSR, 0x01000000)
T2F08 000:612.415 - 0.012ms returns 0x00
T2F08 000:612.425 JLINK_WriteReg(MSP, 0x20001000)
T2F08 000:612.433 - 0.012ms returns 0x00
T2F08 000:612.443 JLINK_WriteReg(PSP, 0x20001000)
T2F08 000:612.451 - 0.012ms returns 0x00
T2F08 000:612.460 JLINK_WriteReg(CFBP, 0x00000000)
T2F08 000:612.468 - 0.012ms returns 0x00
T2F08 000:612.479   JLINK_SetBPEx(Addr = 0x20000000, Type = 0xFFFFFFF2)
T2F08 000:612.491 - 0.017ms returns 0x00000004
T2F08 000:612.501 JLINK_Go()
T2F08 000:612.517    -- CPU_ReadMem(4 bytes @ 0xE0001000)
T2F08 000:617.858 - 5.373ms
T2F08 000:617.897 JLINK_IsHalted()
T2F08 000:618.603 - 0.718ms returns FALSE
T2F08 000:620.131 JLINK_IsHalted()
T2F08 000:620.791 - 0.673ms returns FALSE
T2F08 000:622.554 JLINK_IsHalted()
T2F08 000:623.317 - 0.778ms returns FALSE
T2F08 000:624.709 JLINK_IsHalted()
T2F08 000:625.409 - 0.711ms returns FALSE
T2F08 000:627.090 JLINK_IsHalted()
T2F08 000:627.820 - 0.750ms returns FALSE
T2F08 000:631.289 JLINK_IsHalted()
T2F08 000:632.036 - 0.760ms returns FALSE
T2F08 000:633.729 JLINK_IsHalted()
T2F08 000:638.559    -- CPU_ReadMem(2 bytes @ 0x20000000)
T2F08 000:639.330 - 5.620ms returns TRUE
T2F08 000:639.362 JLINK_ReadReg(R15 (PC))
T2F08 000:639.375 - 0.017ms returns 0x20000000
T2F08 000:639.386 JLINK_ClrBPEx(BPHandle = 0x00000004)
T2F08 000:639.395 - 0.013ms returns 0x00
T2F08 000:639.405 JLINK_ReadReg(R0)
T2F08 000:639.414 - 0.012ms returns 0x00000000
T2F08 000:640.353 JLINK_WriteReg(R0, 0x0800C000)
T2F08 000:640.378 - 0.030ms returns 0x00
T2F08 000:640.389 JLINK_WriteReg(R1, 0x00004000)
T2F08 000:640.398 - 0.012ms returns 0x00
T2F08 000:640.408 JLINK_WriteReg(R2, 0x000000FF)
T2F08 000:640.416 - 0.012ms returns 0x00
T2F08 000:640.426 JLINK_WriteReg(R3, 0x00000000)
T2F08 000:640.434 - 0.012ms returns 0x00
T2F08 000:640.443 JLINK_WriteReg(R4, 0x00000000)
T2F08 000:640.451 - 0.012ms returns 0x00
T2F08 000:640.461 JLINK_WriteReg(R5, 0x00000000)
T2F08 000:640.469 - 0.012ms returns 0x00
T2F08 000:640.478 JLINK_WriteReg(R6, 0x00000000)
T2F08 000:640.487 - 0.012ms returns 0x00
T2F08 000:640.496 JLINK_WriteReg(R7, 0x00000000)
T2F08 000:640.504 - 0.012ms returns 0x00
T2F08 000:640.514 JLINK_WriteReg(R8, 0x00000000)
T2F08 000:640.522 - 0.012ms returns 0x00
T2F08 000:640.531 JLINK_WriteReg(R9, 0x20000180)
T2F08 000:640.539 - 0.012ms returns 0x00
T2F08 000:640.549 JLINK_WriteReg(R10, 0x00000000)
T2F08 000:640.557 - 0.012ms returns 0x00
T2F08 000:640.567 JLINK_WriteReg(R11, 0x00000000)
T2F08 000:640.575 - 0.011ms returns 0x00
T2F08 000:640.584 JLINK_WriteReg(R12, 0x00000000)
T2F08 000:640.592 - 0.012ms returns 0x00
T2F08 000:640.602 JLINK_WriteReg(R13 (SP), 0x20001000)
T2F08 000:640.610 - 0.012ms returns 0x00
T2F08 000:640.620 JLINK_WriteReg(R14, 0x20000001)
T2F08 000:640.628 - 0.012ms returns 0x00
T2F08 000:640.638 JLINK_WriteReg(R15 (PC), 0x20000020)
T2F08 000:640.646 - 0.012ms returns 0x00
T2F08 000:640.656 JLINK_WriteReg(XPSR, 0x01000000)
T2F08 000:640.664 - 0.012ms returns 0x00
T2F08 000:640.674 JLINK_WriteReg(MSP, 0x20001000)
T2F08 000:640.682 - 0.012ms returns 0x00
T2F08 000:640.691 JLINK_WriteReg(PSP, 0x20001000)
T2F08 000:640.699 - 0.012ms returns 0x00
T2F08 000:640.709 JLINK_WriteReg(CFBP, 0x00000000)
T2F08 000:640.722 - 0.019ms returns 0x00
T2F08 000:640.735   JLINK_SetBPEx(Addr = 0x20000000, Type = 0xFFFFFFF2)
T2F08 000:640.748 - 0.017ms returns 0x00000005
T2F08 000:640.758 JLINK_Go()
T2F08 000:640.775    -- CPU_ReadMem(4 bytes @ 0xE0001000)
T2F08 000:646.376 - 5.638ms
T2F08 000:646.532 JLINK_IsHalted()
T2F08 000:647.289 - 0.768ms returns FALSE
T2F08 000:650.522 JLINK_IsHalted()
T2F08 000:651.340 - 0.840ms returns FALSE
T2F08 000:653.028 JLINK_IsHalted()
T2F08 000:653.800 - 0.785ms returns FALSE
T2F08 000:655.466 JLINK_IsHalted()
T2F08 000:656.162 - 0.709ms returns FALSE
T2F08 000:658.018 JLINK_IsHalted()
T2F08 000:658.674 - 0.673ms returns FALSE
T2F08 000:661.474 JLINK_IsHalted()
T2F08 000:666.467    -- CPU_ReadMem(2 bytes @ 0x20000000)
T2F08 000:667.159 - 5.697ms returns TRUE
T2F08 000:667.181 JLINK_ReadReg(R15 (PC))
T2F08 000:667.193 - 0.017ms returns 0x20000000
T2F08 000:667.204 JLINK_ClrBPEx(BPHandle = 0x00000005)
T2F08 000:667.213 - 0.013ms returns 0x00
T2F08 000:667.223 JLINK_ReadReg(R0)
T2F08 000:667.232 - 0.012ms returns 0x00000000
T2F08 000:667.684 JLINK_WriteReg(R0, 0x00000001)
T2F08 000:667.707 - 0.028ms returns 0x00
T2F08 000:667.718 JLINK_WriteReg(R1, 0x00004000)
T2F08 000:667.727 - 0.012ms returns 0x00
T2F08 000:667.738 JLINK_WriteReg(R2, 0x000000FF)
T2F08 000:667.746 - 0.012ms returns 0x00
T2F08 000:667.756 JLINK_WriteReg(R3, 0x00000000)
T2F08 000:667.764 - 0.012ms returns 0x00
T2F08 000:667.774 JLINK_WriteReg(R4, 0x00000000)
T2F08 000:667.782 - 0.012ms returns 0x00
T2F08 000:667.792 JLINK_WriteReg(R5, 0x00000000)
T2F08 000:667.800 - 0.012ms returns 0x00
T2F08 000:667.810 JLINK_WriteReg(R6, 0x00000000)
T2F08 000:667.818 - 0.012ms returns 0x00
T2F08 000:667.828 JLINK_WriteReg(R7, 0x00000000)
T2F08 000:667.836 - 0.012ms returns 0x00
T2F08 000:667.846 JLINK_WriteReg(R8, 0x00000000)
T2F08 000:667.855 - 0.012ms returns 0x00
T2F08 000:667.865 JLINK_WriteReg(R9, 0x20000180)
T2F08 000:667.873 - 0.015ms returns 0x00
T2F08 000:667.890 JLINK_WriteReg(R10, 0x00000000)
T2F08 000:667.907 - 0.024ms returns 0x00
T2F08 000:667.935 JLINK_WriteReg(R11, 0x00000000)
T2F08 000:667.952 - 0.023ms returns 0x00
T2F08 000:667.965 JLINK_WriteReg(R12, 0x00000000)
T2F08 000:667.973 - 0.013ms returns 0x00
T2F08 000:667.983 JLINK_WriteReg(R13 (SP), 0x20001000)
T2F08 000:667.993 - 0.013ms returns 0x00
T2F08 000:668.002 JLINK_WriteReg(R14, 0x20000001)
T2F08 000:668.011 - 0.012ms returns 0x00
T2F08 000:668.021 JLINK_WriteReg(R15 (PC), 0x20000086)
T2F08 000:668.029 - 0.012ms returns 0x00
T2F08 000:668.039 JLINK_WriteReg(XPSR, 0x01000000)
T2F08 000:668.048 - 0.012ms returns 0x00
T2F08 000:668.057 JLINK_WriteReg(MSP, 0x20001000)
T2F08 000:668.066 - 0.012ms returns 0x00
T2F08 000:668.075 JLINK_WriteReg(PSP, 0x20001000)
T2F08 000:668.084 - 0.012ms returns 0x00
T2F08 000:668.093 JLINK_WriteReg(CFBP, 0x00000000)
T2F08 000:668.101 - 0.012ms returns 0x00
T2F08 000:668.112   JLINK_SetBPEx(Addr = 0x20000000, Type = 0xFFFFFFF2)
T2F08 000:668.126 - 0.018ms returns 0x00000006
T2F08 000:668.135 JLINK_Go()
T2F08 000:668.152    -- CPU_ReadMem(4 bytes @ 0xE0001000)
T2F08 000:673.742 - 5.623ms
T2F08 000:673.782 JLINK_IsHalted()
T2F08 000:678.561    -- CPU_ReadMem(2 bytes @ 0x20000000)
T2F08 000:679.310 - 5.545ms returns TRUE
T2F08 000:679.348 JLINK_ReadReg(R15 (PC))
T2F08 000:679.361 - 0.018ms returns 0x20000000
T2F08 000:679.376 JLINK_ClrBPEx(BPHandle = 0x00000006)
T2F08 000:679.386 - 0.013ms returns 0x00
T2F08 000:679.399 JLINK_ReadReg(R0)
T2F08 000:679.409 - 0.013ms returns 0x00000000
T2F08 000:743.491 JLINK_WriteMem(0x20000000, 0x0184 Bytes, ...)
T2F08 000:743.514   Data:  00 BE 0A E0 0D 78 2D 06 68 40 08 24 40 00 00 D3 ...
T2F08 000:743.545    -- CPU_WriteMem(388 bytes @ 0x20000000)
T2F08 000:747.773 - 4.295ms returns 0x184
T2F08 000:747.830 JLINK_WriteReg(R0, 0x08000000)
T2F08 000:747.844 - 0.020ms returns 0x00
T2F08 000:747.855 JLINK_WriteReg(R1, 0x017D7840)
T2F08 000:747.865 - 0.013ms returns 0x00
T2F08 000:747.875 JLINK_WriteReg(R2, 0x00000002)
T2F08 000:747.890 - 0.022ms returns 0x00
T2F08 000:747.903 JLINK_WriteReg(R3, 0x00000000)
T2F08 000:747.912 - 0.012ms returns 0x00
T2F08 000:747.921 JLINK_WriteReg(R4, 0x00000000)
T2F08 000:747.930 - 0.012ms returns 0x00
T2F08 000:747.939 JLINK_WriteReg(R5, 0x00000000)
T2F08 000:748.015 - 0.080ms returns 0x00
T2F08 000:748.027 JLINK_WriteReg(R6, 0x00000000)
T2F08 000:748.035 - 0.012ms returns 0x00
T2F08 000:748.046 JLINK_WriteReg(R7, 0x00000000)
T2F08 000:748.054 - 0.012ms returns 0x00
T2F08 000:748.064 JLINK_WriteReg(R8, 0x00000000)
T2F08 000:748.073 - 0.013ms returns 0x00
T2F08 000:748.089 JLINK_WriteReg(R9, 0x20000180)
T2F08 000:748.105 - 0.023ms returns 0x00
T2F08 000:748.123 JLINK_WriteReg(R10, 0x00000000)
T2F08 000:748.139 - 0.023ms returns 0x00
T2F08 000:748.155 JLINK_WriteReg(R11, 0x00000000)
T2F08 000:748.172 - 0.025ms returns 0x00
T2F08 000:748.190 JLINK_WriteReg(R12, 0x00000000)
T2F08 000:748.199 - 0.013ms returns 0x00
T2F08 000:748.210 JLINK_WriteReg(R13 (SP), 0x20001000)
T2F08 000:748.220 - 0.014ms returns 0x00
T2F08 000:748.230 JLINK_WriteReg(R14, 0x20000001)
T2F08 000:748.239 - 0.012ms returns 0x00
T2F08 000:748.249 JLINK_WriteReg(R15 (PC), 0x20000054)
T2F08 000:748.258 - 0.013ms returns 0x00
T2F08 000:748.268 JLINK_WriteReg(XPSR, 0x01000000)
T2F08 000:748.276 - 0.012ms returns 0x00
T2F08 000:748.286 JLINK_WriteReg(MSP, 0x20001000)
T2F08 000:748.385 - 0.114ms returns 0x00
T2F08 000:748.416 JLINK_WriteReg(PSP, 0x20001000)
T2F08 000:748.437 - 0.028ms returns 0x00
T2F08 000:748.456 JLINK_WriteReg(CFBP, 0x00000000)
T2F08 000:748.476 - 0.028ms returns 0x00
T2F08 000:748.498   JLINK_SetBPEx(Addr = 0x20000000, Type = 0xFFFFFFF2)
T2F08 000:748.535    -- CPU_ReadMem(2 bytes @ 0x20000000)
T2F08 000:749.323 - 0.846ms returns 0x00000007
T2F08 000:749.362 JLINK_Go()
T2F08 000:749.389    -- CPU_WriteMem(2 bytes @ 0x20000000)
T2F08 000:750.103    -- CPU_ReadMem(4 bytes @ 0xE0001000)
T2F08 000:755.707 - 6.371ms
T2F08 000:755.753 JLINK_IsHalted()
T2F08 000:760.697    -- CPU_ReadMem(2 bytes @ 0x20000000)
T2F08 000:761.458 - 5.717ms returns TRUE
T2F08 000:761.496 JLINK_ReadReg(R15 (PC))
T2F08 000:761.509 - 0.017ms returns 0x20000000
T2F08 000:761.524 JLINK_ClrBPEx(BPHandle = 0x00000007)
T2F08 000:761.534 - 0.013ms returns 0x00
T2F08 000:761.548 JLINK_ReadReg(R0)
T2F08 000:761.557 - 0.013ms returns 0x00000000
T2F08 000:762.027 JLINK_WriteMem(0x20000184, 0x027C Bytes, ...)
T2F08 000:762.047   Data:  58 0C 00 20 A9 01 00 08 B1 85 00 08 8D 6F 00 08 ...
T2F08 000:762.070    -- CPU_WriteMem(636 bytes @ 0x20000184)
T2F08 000:768.432 - 6.421ms returns 0x27C
T2F08 000:768.459 JLINK_WriteMem(0x20000400, 0x0184 Bytes, ...)
T2F08 000:768.469   Data:  81 EA 03 00 C0 0F 0C 46 00 90 21 F0 00 41 23 F0 ...
T2F08 000:768.490    -- CPU_WriteMem(388 bytes @ 0x20000400)
T2F08 000:772.799 - 4.360ms returns 0x184
T2F08 000:772.838 JLINK_WriteReg(R0, 0x08000000)
T2F08 000:772.865 - 0.036ms returns 0x00
T2F08 000:772.884 JLINK_WriteReg(R1, 0x00000400)
T2F08 000:772.901 - 0.024ms returns 0x00
T2F08 000:772.919 JLINK_WriteReg(R2, 0x20000184)
T2F08 000:772.934 - 0.022ms returns 0x00
T2F08 000:772.952 JLINK_WriteReg(R3, 0x00000000)
T2F08 000:772.966 - 0.020ms returns 0x00
T2F08 000:773.013 JLINK_WriteReg(R4, 0x00000000)
T2F08 000:773.047 - 0.044ms returns 0x00
T2F08 000:773.069 JLINK_WriteReg(R5, 0x00000000)
T2F08 000:773.090 - 0.028ms returns 0x00
T2F08 000:773.106 JLINK_WriteReg(R6, 0x00000000)
T2F08 000:773.117 - 0.016ms returns 0x00
T2F08 000:773.130 JLINK_WriteReg(R7, 0x00000000)
T2F08 000:773.140 - 0.015ms returns 0x00
T2F08 000:773.153 JLINK_WriteReg(R8, 0x00000000)
T2F08 000:773.171 - 0.027ms returns 0x00
T2F08 000:773.191 JLINK_WriteReg(R9, 0x20000180)
T2F08 000:773.202 - 0.016ms returns 0x00
T2F08 000:773.215 JLINK_WriteReg(R10, 0x00000000)
T2F08 000:773.225 - 0.016ms returns 0x00
T2F08 000:773.239 JLINK_WriteReg(R11, 0x00000000)
T2F08 000:773.249 - 0.016ms returns 0x00
T2F08 000:773.262 JLINK_WriteReg(R12, 0x00000000)
T2F08 000:773.273 - 0.015ms returns 0x00
T2F08 000:773.367 JLINK_WriteReg(R13 (SP), 0x20001000)
T2F08 000:773.386 - 0.024ms returns 0x00
T2F08 000:773.399 JLINK_WriteReg(R14, 0x20000001)
T2F08 000:773.409 - 0.015ms returns 0x00
T2F08 000:773.422 JLINK_WriteReg(R15 (PC), 0x2000010C)
T2F08 000:773.433 - 0.016ms returns 0x00
T2F08 000:773.445 JLINK_WriteReg(XPSR, 0x01000000)
T2F08 000:773.456 - 0.016ms returns 0x00
T2F08 000:773.469 JLINK_WriteReg(MSP, 0x20001000)
T2F08 000:773.479 - 0.015ms returns 0x00
T2F08 000:773.492 JLINK_WriteReg(PSP, 0x20001000)
T2F08 000:773.502 - 0.015ms returns 0x00
T2F08 000:773.515 JLINK_WriteReg(CFBP, 0x00000000)
T2F08 000:773.525 - 0.015ms returns 0x00
T2F08 000:773.539   JLINK_SetBPEx(Addr = 0x20000000, Type = 0xFFFFFFF2)
T2F08 000:773.556 - 0.022ms returns 0x00000008
T2F08 000:773.568 JLINK_Go()
T2F08 000:773.590    -- CPU_ReadMem(4 bytes @ 0xE0001000)
T2F08 000:779.008 - 5.455ms
T2F08 000:779.035 JLINK_IsHalted()
T2F08 000:779.667 - 0.642ms returns FALSE
T2F08 000:789.043 JLINK_IsHalted()
T2F08 000:794.172    -- CPU_ReadMem(2 bytes @ 0x20000000)
T2F08 000:794.935 - 5.906ms returns TRUE
T2F08 000:794.961 JLINK_ReadReg(R15 (PC))
T2F08 000:794.977 - 0.021ms returns 0x20000000
T2F08 000:794.990 JLINK_ClrBPEx(BPHandle = 0x00000008)
T2F08 000:795.001 - 0.016ms returns 0x00
T2F08 000:795.014 JLINK_ReadReg(R0)
T2F08 000:795.024 - 0.015ms returns 0x00000000
T2F08 000:795.968 JLINK_WriteMem(0x20000184, 0x027C Bytes, ...)
T2F08 000:795.994   Data:  13 01 41 F4 80 11 C3 F3 13 03 43 F4 80 13 01 FB ...
T2F08 000:796.023    -- CPU_WriteMem(636 bytes @ 0x20000184)
T2F08 000:802.307 - 6.359ms returns 0x27C
T2F08 000:802.340 JLINK_WriteMem(0x20000400, 0x0184 Bytes, ...)
T2F08 000:802.352   Data:  43 EA E0 73 06 E0 41 FA 02 F3 D0 40 C2 F1 20 02 ...
T2F08 000:802.377    -- CPU_WriteMem(388 bytes @ 0x20000400)
T2F08 000:806.525 - 4.205ms returns 0x184
T2F08 000:806.564 JLINK_WriteReg(R0, 0x08000400)
T2F08 000:806.580 - 0.021ms returns 0x00
T2F08 000:806.593 JLINK_WriteReg(R1, 0x00000400)
T2F08 000:806.604 - 0.016ms returns 0x00
T2F08 000:806.616 JLINK_WriteReg(R2, 0x20000184)
T2F08 000:806.627 - 0.015ms returns 0x00
T2F08 000:806.639 JLINK_WriteReg(R3, 0x00000000)
T2F08 000:806.649 - 0.015ms returns 0x00
T2F08 000:806.661 JLINK_WriteReg(R4, 0x00000000)
T2F08 000:806.671 - 0.015ms returns 0x00
T2F08 000:806.683 JLINK_WriteReg(R5, 0x00000000)
T2F08 000:806.693 - 0.015ms returns 0x00
T2F08 000:806.705 JLINK_WriteReg(R6, 0x00000000)
T2F08 000:806.715 - 0.015ms returns 0x00
T2F08 000:806.727 JLINK_WriteReg(R7, 0x00000000)
T2F08 000:806.737 - 0.015ms returns 0x00
T2F08 000:806.749 JLINK_WriteReg(R8, 0x00000000)
T2F08 000:806.760 - 0.015ms returns 0x00
T2F08 000:806.772 JLINK_WriteReg(R9, 0x20000180)
T2F08 000:806.782 - 0.015ms returns 0x00
T2F08 000:806.794 JLINK_WriteReg(R10, 0x00000000)
T2F08 000:806.804 - 0.015ms returns 0x00
T2F08 000:806.816 JLINK_WriteReg(R11, 0x00000000)
T2F08 000:806.826 - 0.015ms returns 0x00
T2F08 000:806.838 JLINK_WriteReg(R12, 0x00000000)
T2F08 000:806.848 - 0.015ms returns 0x00
T2F08 000:806.860 JLINK_WriteReg(R13 (SP), 0x20001000)
T2F08 000:806.871 - 0.016ms returns 0x00
T2F08 000:806.883 JLINK_WriteReg(R14, 0x20000001)
T2F08 000:806.893 - 0.015ms returns 0x00
T2F08 000:806.906 JLINK_WriteReg(R15 (PC), 0x2000010C)
T2F08 000:806.916 - 0.015ms returns 0x00
T2F08 000:806.928 JLINK_WriteReg(XPSR, 0x01000000)
T2F08 000:806.938 - 0.015ms returns 0x00
T2F08 000:806.950 JLINK_WriteReg(MSP, 0x20001000)
T2F08 000:806.960 - 0.015ms returns 0x00
T2F08 000:806.972 JLINK_WriteReg(PSP, 0x20001000)
T2F08 000:806.982 - 0.015ms returns 0x00
T2F08 000:806.994 JLINK_WriteReg(CFBP, 0x00000000)
T2F08 000:807.004 - 0.015ms returns 0x00
T2F08 000:807.017   JLINK_SetBPEx(Addr = 0x20000000, Type = 0xFFFFFFF2)
T2F08 000:807.033 - 0.021ms returns 0x00000009
T2F08 000:807.045 JLINK_Go()
T2F08 000:807.065    -- CPU_ReadMem(4 bytes @ 0xE0001000)
T2F08 000:812.496 - 5.467ms
T2F08 000:812.523 JLINK_IsHalted()
T2F08 000:813.166 - 0.655ms returns FALSE
T2F08 000:814.276 JLINK_IsHalted()
T2F08 000:814.933 - 0.678ms returns FALSE
T2F08 000:816.622 JLINK_IsHalted()
T2F08 000:821.624    -- CPU_ReadMem(2 bytes @ 0x20000000)
T2F08 000:822.305 - 5.694ms returns TRUE
T2F08 000:822.326 JLINK_ReadReg(R15 (PC))
T2F08 000:822.339 - 0.017ms returns 0x20000000
T2F08 000:822.349 JLINK_ClrBPEx(BPHandle = 0x00000009)
T2F08 000:822.358 - 0.013ms returns 0x00
T2F08 000:822.368 JLINK_ReadReg(R0)
T2F08 000:822.376 - 0.012ms returns 0x00000000
T2F08 000:823.189 JLINK_WriteMem(0x20000184, 0x027C Bytes, ...)
T2F08 000:823.210   Data:  14 1E 73 F1 00 04 05 DB 1C 46 4F F0 00 43 52 42 ...
T2F08 000:823.233    -- CPU_WriteMem(636 bytes @ 0x20000184)
T2F08 000:829.635 - 6.469ms returns 0x27C
T2F08 000:829.673 JLINK_WriteMem(0x20000400, 0x0184 Bytes, ...)
T2F08 000:829.685   Data:  10 43 C8 62 01 98 01 68 88 68 20 F4 00 70 88 60 ...
T2F08 000:829.712    -- CPU_WriteMem(388 bytes @ 0x20000400)
T2F08 000:833.894 - 4.241ms returns 0x184
T2F08 000:833.935 JLINK_WriteReg(R0, 0x08000800)
T2F08 000:833.961 - 0.033ms returns 0x00
T2F08 000:833.975 JLINK_WriteReg(R1, 0x00000400)
T2F08 000:833.986 - 0.027ms returns 0x00
T2F08 000:834.010 JLINK_WriteReg(R2, 0x20000184)
T2F08 000:834.028 - 0.028ms returns 0x00
T2F08 000:834.050 JLINK_WriteReg(R3, 0x00000000)
T2F08 000:834.099 - 0.059ms returns 0x00
T2F08 000:834.123 JLINK_WriteReg(R4, 0x00000000)
T2F08 000:834.140 - 0.025ms returns 0x00
T2F08 000:834.159 JLINK_WriteReg(R5, 0x00000000)
T2F08 000:834.177 - 0.025ms returns 0x00
T2F08 000:834.196 JLINK_WriteReg(R6, 0x00000000)
T2F08 000:834.207 - 0.015ms returns 0x00
T2F08 000:834.217 JLINK_WriteReg(R7, 0x00000000)
T2F08 000:834.227 - 0.018ms returns 0x00
T2F08 000:834.245 JLINK_WriteReg(R8, 0x00000000)
T2F08 000:834.259 - 0.018ms returns 0x00
T2F08 000:834.269 JLINK_WriteReg(R9, 0x20000180)
T2F08 000:834.278 - 0.012ms returns 0x00
T2F08 000:834.288 JLINK_WriteReg(R10, 0x00000000)
T2F08 000:834.301 - 0.021ms returns 0x00
T2F08 000:834.318 JLINK_WriteReg(R11, 0x00000000)
T2F08 000:834.335 - 0.024ms returns 0x00
T2F08 000:834.352 JLINK_WriteReg(R12, 0x00000000)
T2F08 000:834.368 - 0.023ms returns 0x00
T2F08 000:834.387 JLINK_WriteReg(R13 (SP), 0x20001000)
T2F08 000:834.404 - 0.025ms returns 0x00
T2F08 000:834.421 JLINK_WriteReg(R14, 0x20000001)
T2F08 000:834.436 - 0.020ms returns 0x00
T2F08 000:834.451 JLINK_WriteReg(R15 (PC), 0x2000010C)
T2F08 000:834.466 - 0.021ms returns 0x00
T2F08 000:834.482 JLINK_WriteReg(XPSR, 0x01000000)
T2F08 000:834.498 - 0.021ms returns 0x00
T2F08 000:834.512 JLINK_WriteReg(MSP, 0x20001000)
T2F08 000:834.526 - 0.021ms returns 0x00
T2F08 000:834.542 JLINK_WriteReg(PSP, 0x20001000)
T2F08 000:834.558 - 0.023ms returns 0x00
T2F08 000:834.575 JLINK_WriteReg(CFBP, 0x00000000)
T2F08 000:834.584 - 0.013ms returns 0x00
T2F08 000:834.595   JLINK_SetBPEx(Addr = 0x20000000, Type = 0xFFFFFFF2)
T2F08 000:834.618 - 0.032ms returns 0x0000000A
T2F08 000:834.637 JLINK_Go()
T2F08 000:834.657    -- CPU_ReadMem(4 bytes @ 0xE0001000)
T2F08 000:840.381 - 5.768ms
T2F08 000:840.434 JLINK_IsHalted()
T2F08 000:841.179 - 0.760ms returns FALSE
T2F08 000:844.092 JLINK_IsHalted()
T2F08 000:848.944    -- CPU_ReadMem(2 bytes @ 0x20000000)
T2F08 000:849.671 - 5.593ms returns TRUE
T2F08 000:849.698 JLINK_ReadReg(R15 (PC))
T2F08 000:849.713 - 0.020ms returns 0x20000000
T2F08 000:849.725 JLINK_ClrBPEx(BPHandle = 0x0000000A)
T2F08 000:849.737 - 0.016ms returns 0x00
T2F08 000:849.749 JLINK_ReadReg(R0)
T2F08 000:849.760 - 0.015ms returns 0x00000000
T2F08 000:850.683 JLINK_WriteMem(0x20000184, 0x027C Bytes, ...)
T2F08 000:850.704   Data:  FF E7 40 F2 10 20 C2 F2 00 00 C0 88 B0 F5 7A 7F ...
T2F08 000:850.725    -- CPU_WriteMem(636 bytes @ 0x20000184)
T2F08 000:857.072 - 6.419ms returns 0x27C
T2F08 000:857.118 JLINK_WriteMem(0x20000400, 0x0184 Bytes, ...)
T2F08 000:857.130   Data:  C2 F2 00 00 90 ED 00 0A BE EE 08 1A 30 EE 01 0A ...
T2F08 000:857.159    -- CPU_WriteMem(388 bytes @ 0x20000400)
T2F08 000:861.456 - 4.357ms returns 0x184
T2F08 000:861.491 JLINK_WriteReg(R0, 0x08000C00)
T2F08 000:861.510 - 0.026ms returns 0x00
T2F08 000:861.523 JLINK_WriteReg(R1, 0x00000400)
T2F08 000:861.532 - 0.013ms returns 0x00
T2F08 000:861.541 JLINK_WriteReg(R2, 0x20000184)
T2F08 000:861.550 - 0.012ms returns 0x00
T2F08 000:861.560 JLINK_WriteReg(R3, 0x00000000)
T2F08 000:861.568 - 0.012ms returns 0x00
T2F08 000:861.577 JLINK_WriteReg(R4, 0x00000000)
T2F08 000:861.585 - 0.012ms returns 0x00
T2F08 000:861.595 JLINK_WriteReg(R5, 0x00000000)
T2F08 000:861.603 - 0.012ms returns 0x00
T2F08 000:861.613 JLINK_WriteReg(R6, 0x00000000)
T2F08 000:861.621 - 0.012ms returns 0x00
T2F08 000:861.630 JLINK_WriteReg(R7, 0x00000000)
T2F08 000:861.638 - 0.012ms returns 0x00
T2F08 000:861.648 JLINK_WriteReg(R8, 0x00000000)
T2F08 000:861.656 - 0.012ms returns 0x00
T2F08 000:861.665 JLINK_WriteReg(R9, 0x20000180)
T2F08 000:861.674 - 0.012ms returns 0x00
T2F08 000:861.683 JLINK_WriteReg(R10, 0x00000000)
T2F08 000:861.691 - 0.012ms returns 0x00
T2F08 000:861.701 JLINK_WriteReg(R11, 0x00000000)
T2F08 000:861.709 - 0.012ms returns 0x00
T2F08 000:861.718 JLINK_WriteReg(R12, 0x00000000)
T2F08 000:861.726 - 0.012ms returns 0x00
T2F08 000:861.736 JLINK_WriteReg(R13 (SP), 0x20001000)
T2F08 000:861.745 - 0.013ms returns 0x00
T2F08 000:861.754 JLINK_WriteReg(R14, 0x20000001)
T2F08 000:861.762 - 0.012ms returns 0x00
T2F08 000:861.772 JLINK_WriteReg(R15 (PC), 0x2000010C)
T2F08 000:861.780 - 0.012ms returns 0x00
T2F08 000:861.790 JLINK_WriteReg(XPSR, 0x01000000)
T2F08 000:861.798 - 0.012ms returns 0x00
T2F08 000:861.807 JLINK_WriteReg(MSP, 0x20001000)
T2F08 000:861.815 - 0.012ms returns 0x00
T2F08 000:861.825 JLINK_WriteReg(PSP, 0x20001000)
T2F08 000:861.833 - 0.012ms returns 0x00
T2F08 000:861.842 JLINK_WriteReg(CFBP, 0x00000000)
T2F08 000:861.850 - 0.012ms returns 0x00
T2F08 000:861.861   JLINK_SetBPEx(Addr = 0x20000000, Type = 0xFFFFFFF2)
T2F08 000:861.873 - 0.017ms returns 0x0000000B
T2F08 000:861.883 JLINK_Go()
T2F08 000:861.901    -- CPU_ReadMem(4 bytes @ 0xE0001000)
T2F08 000:867.292 - 5.426ms
T2F08 000:867.335 JLINK_IsHalted()
T2F08 000:868.038 - 0.715ms returns FALSE
T2F08 000:871.167 JLINK_IsHalted()
T2F08 000:876.206    -- CPU_ReadMem(2 bytes @ 0x20000000)
T2F08 000:876.933 - 5.782ms returns TRUE
T2F08 000:876.960 JLINK_ReadReg(R15 (PC))
T2F08 000:876.972 - 0.016ms returns 0x20000000
T2F08 000:876.993 JLINK_ClrBPEx(BPHandle = 0x0000000B)
T2F08 000:877.003 - 0.013ms returns 0x00
T2F08 000:877.013 JLINK_ReadReg(R0)
T2F08 000:877.022 - 0.013ms returns 0x00000000
T2F08 000:877.805 JLINK_WriteMem(0x20000184, 0x027C Bytes, ...)
T2F08 000:877.825   Data:  00 01 01 20 08 70 40 F2 1E 11 C2 F2 00 01 00 20 ...
T2F08 000:877.847    -- CPU_WriteMem(636 bytes @ 0x20000184)
T2F08 000:884.303 - 6.518ms returns 0x27C
T2F08 000:884.335 JLINK_WriteMem(0x20000400, 0x0184 Bytes, ...)
T2F08 000:884.347   Data:  C0 0A 10 EE 10 0A AD F8 1A 00 03 98 90 ED 06 0A ...
T2F08 000:884.371    -- CPU_WriteMem(388 bytes @ 0x20000400)
T2F08 000:888.609 - 4.314ms returns 0x184
T2F08 000:888.674 JLINK_WriteReg(R0, 0x08001000)
T2F08 000:888.701 - 0.036ms returns 0x00
T2F08 000:888.717 JLINK_WriteReg(R1, 0x00000400)
T2F08 000:888.728 - 0.016ms returns 0x00
T2F08 000:888.741 JLINK_WriteReg(R2, 0x20000184)
T2F08 000:888.751 - 0.015ms returns 0x00
T2F08 000:888.763 JLINK_WriteReg(R3, 0x00000000)
T2F08 000:888.774 - 0.015ms returns 0x00
T2F08 000:888.786 JLINK_WriteReg(R4, 0x00000000)
T2F08 000:888.796 - 0.015ms returns 0x00
T2F08 000:888.808 JLINK_WriteReg(R5, 0x00000000)
T2F08 000:888.818 - 0.015ms returns 0x00
T2F08 000:888.830 JLINK_WriteReg(R6, 0x00000000)
T2F08 000:888.840 - 0.015ms returns 0x00
T2F08 000:888.852 JLINK_WriteReg(R7, 0x00000000)
T2F08 000:888.863 - 0.015ms returns 0x00
T2F08 000:888.874 JLINK_WriteReg(R8, 0x00000000)
T2F08 000:888.885 - 0.015ms returns 0x00
T2F08 000:888.897 JLINK_WriteReg(R9, 0x20000180)
T2F08 000:888.907 - 0.015ms returns 0x00
T2F08 000:888.919 JLINK_WriteReg(R10, 0x00000000)
T2F08 000:888.929 - 0.015ms returns 0x00
T2F08 000:888.941 JLINK_WriteReg(R11, 0x00000000)
T2F08 000:888.969 - 0.038ms returns 0x00
T2F08 000:888.991 JLINK_WriteReg(R12, 0x00000000)
T2F08 000:889.011 - 0.027ms returns 0x00
T2F08 000:889.030 JLINK_WriteReg(R13 (SP), 0x20001000)
T2F08 000:889.050 - 0.030ms returns 0x00
T2F08 000:889.071 JLINK_WriteReg(R14, 0x20000001)
T2F08 000:889.090 - 0.027ms returns 0x00
T2F08 000:889.108 JLINK_WriteReg(R15 (PC), 0x2000010C)
T2F08 000:889.123 - 0.023ms returns 0x00
T2F08 000:889.142 JLINK_WriteReg(XPSR, 0x01000000)
T2F08 000:889.161 - 0.027ms returns 0x00
T2F08 000:889.183 JLINK_WriteReg(MSP, 0x20001000)
T2F08 000:889.197 - 0.018ms returns 0x00
T2F08 000:889.209 JLINK_WriteReg(PSP, 0x20001000)
T2F08 000:889.219 - 0.015ms returns 0x00
T2F08 000:889.231 JLINK_WriteReg(CFBP, 0x00000000)
T2F08 000:889.241 - 0.015ms returns 0x00
T2F08 000:889.255   JLINK_SetBPEx(Addr = 0x20000000, Type = 0xFFFFFFF2)
T2F08 000:889.271 - 0.021ms returns 0x0000000C
T2F08 000:889.283 JLINK_Go()
T2F08 000:889.304    -- CPU_ReadMem(4 bytes @ 0xE0001000)
T2F08 000:894.932 - 5.670ms
T2F08 000:894.988 JLINK_IsHalted()
T2F08 000:895.698 - 0.732ms returns FALSE
T2F08 000:898.743 JLINK_IsHalted()
T2F08 000:903.696    -- CPU_ReadMem(2 bytes @ 0x20000000)
T2F08 000:904.424 - 5.695ms returns TRUE
T2F08 000:904.451 JLINK_ReadReg(R15 (PC))
T2F08 000:904.466 - 0.020ms returns 0x20000000
T2F08 000:904.479 JLINK_ClrBPEx(BPHandle = 0x0000000C)
T2F08 000:904.491 - 0.016ms returns 0x00
T2F08 000:904.503 JLINK_ReadReg(R0)
T2F08 000:904.514 - 0.015ms returns 0x00000000
T2F08 000:905.294 JLINK_WriteMem(0x20000184, 0x027C Bytes, ...)
T2F08 000:905.315   Data:  15 20 48 71 FF E7 FF E7 FF E7 FF E7 FF E7 FF E7 ...
T2F08 000:905.336    -- CPU_WriteMem(636 bytes @ 0x20000184)
T2F08 000:911.692 - 6.419ms returns 0x27C
T2F08 000:911.727 JLINK_WriteMem(0x20000400, 0x0184 Bytes, ...)
T2F08 000:911.739   Data:  40 F2 22 10 C2 F2 00 00 00 78 80 09 C0 07 00 28 ...
T2F08 000:911.764    -- CPU_WriteMem(388 bytes @ 0x20000400)
T2F08 000:916.039 - 4.336ms returns 0x184
T2F08 000:916.081 JLINK_WriteReg(R0, 0x08001400)
T2F08 000:916.099 - 0.023ms returns 0x00
T2F08 000:916.111 JLINK_WriteReg(R1, 0x00000400)
T2F08 000:916.122 - 0.016ms returns 0x00
T2F08 000:916.134 JLINK_WriteReg(R2, 0x20000184)
T2F08 000:916.145 - 0.015ms returns 0x00
T2F08 000:916.156 JLINK_WriteReg(R3, 0x00000000)
T2F08 000:916.167 - 0.015ms returns 0x00
T2F08 000:916.179 JLINK_WriteReg(R4, 0x00000000)
T2F08 000:916.189 - 0.015ms returns 0x00
T2F08 000:916.201 JLINK_WriteReg(R5, 0x00000000)
T2F08 000:916.212 - 0.015ms returns 0x00
T2F08 000:916.223 JLINK_WriteReg(R6, 0x00000000)
T2F08 000:916.234 - 0.015ms returns 0x00
T2F08 000:916.245 JLINK_WriteReg(R7, 0x00000000)
T2F08 000:916.256 - 0.015ms returns 0x00
T2F08 000:916.267 JLINK_WriteReg(R8, 0x00000000)
T2F08 000:916.278 - 0.015ms returns 0x00
T2F08 000:916.290 JLINK_WriteReg(R9, 0x20000180)
T2F08 000:916.300 - 0.015ms returns 0x00
T2F08 000:916.311 JLINK_WriteReg(R10, 0x00000000)
T2F08 000:916.323 - 0.016ms returns 0x00
T2F08 000:916.335 JLINK_WriteReg(R11, 0x00000000)
T2F08 000:916.345 - 0.015ms returns 0x00
T2F08 000:916.357 JLINK_WriteReg(R12, 0x00000000)
T2F08 000:916.367 - 0.015ms returns 0x00
T2F08 000:916.379 JLINK_WriteReg(R13 (SP), 0x20001000)
T2F08 000:916.390 - 0.016ms returns 0x00
T2F08 000:916.402 JLINK_WriteReg(R14, 0x20000001)
T2F08 000:916.412 - 0.015ms returns 0x00
T2F08 000:916.424 JLINK_WriteReg(R15 (PC), 0x2000010C)
T2F08 000:916.434 - 0.015ms returns 0x00
T2F08 000:916.446 JLINK_WriteReg(XPSR, 0x01000000)
T2F08 000:916.457 - 0.015ms returns 0x00
T2F08 000:916.469 JLINK_WriteReg(MSP, 0x20001000)
T2F08 000:916.479 - 0.015ms returns 0x00
T2F08 000:916.491 JLINK_WriteReg(PSP, 0x20001000)
T2F08 000:916.501 - 0.015ms returns 0x00
T2F08 000:916.513 JLINK_WriteReg(CFBP, 0x00000000)
T2F08 000:916.523 - 0.015ms returns 0x00
T2F08 000:916.536   JLINK_SetBPEx(Addr = 0x20000000, Type = 0xFFFFFFF2)
T2F08 000:916.552 - 0.021ms returns 0x0000000D
T2F08 000:916.564 JLINK_Go()
T2F08 000:916.585    -- CPU_ReadMem(4 bytes @ 0xE0001000)
T2F08 000:922.005 - 5.457ms
T2F08 000:922.048 JLINK_IsHalted()
T2F08 000:922.664 - 0.636ms returns FALSE
T2F08 000:923.811 JLINK_IsHalted()
T2F08 000:924.643 - 0.857ms returns FALSE
T2F08 000:927.913 JLINK_IsHalted()
T2F08 000:932.809    -- CPU_ReadMem(2 bytes @ 0x20000000)
T2F08 000:933.614 - 5.713ms returns TRUE
T2F08 000:933.636 JLINK_ReadReg(R15 (PC))
T2F08 000:933.648 - 0.016ms returns 0x20000000
T2F08 000:933.659 JLINK_ClrBPEx(BPHandle = 0x0000000D)
T2F08 000:933.668 - 0.013ms returns 0x00
T2F08 000:933.678 JLINK_ReadReg(R0)
T2F08 000:933.686 - 0.012ms returns 0x00000000
T2F08 000:934.465 JLINK_WriteMem(0x20000184, 0x027C Bytes, ...)
T2F08 000:934.527   Data:  C2 F2 00 01 08 78 00 F0 FB 00 08 70 10 E0 40 F2 ...
T2F08 000:934.556    -- CPU_WriteMem(636 bytes @ 0x20000184)
